T15B0 3034:439 SEGGER J-Link V6.30h Log File (0001ms, 6873ms total)
T15B0 3034:439 DLL Compiled: Mar 16 2018 18:02:51 (0001ms, 6873ms total)
T15B0 3034:439 Logging started @ 2018-08-09 21:22 (0001ms, 6873ms total)
T15B0 3034:440 JLINK_SetWarnOutHandler(...) (0000ms, 6873ms total)
T15B0 3034:440 JLINK_OpenEx(...)
Firmware: J-Link ARM-OB STM32 compiled Aug 22 2012 19:52:04
Hardware: V7.00
S/N: 20151209
Feature(s): RDI,FlashDL,FlashBP,JFlash,GDBFull
TELNET listener socket opened on port 19021WEBSRV 
Starting webserver (0149ms, 7022ms total)
T15B0 3034:440 WEBSRV Webserver running on local port 19080 (0149ms, 7022ms total)
T15B0 3034:440   returns O.K. (0149ms, 7022ms total)
T15B0 3034:589 JLINK_GetEmuCaps()  returns 0x88EA5833 (0000ms, 7022ms total)
T15B0 3034:590 JLINK_TIF_GetAvailable(...) (0000ms, 7022ms total)
T15B0 3034:590 JLINK_SetErrorOutHandler(...) (0000ms, 7022ms total)
T15B0 3034:590 JLINK_ExecCommand("ProjectFile = "C:\Users\sean\Workspace\armProjects\M17_FreeRTOS\JLinkSettings.ini"", ...).   returns 0x00 (0003ms, 7025ms total)
T15B0 3034:594 JLINK_ExecCommand("Device = STM32F103RC", ...). Device "STM32F103RC" selected.  returns 0x00 (0008ms, 7033ms total)
T15B0 3034:602 JLINK_ExecCommand("DisableConnectionTimeout", ...).   returns 0x01 (0000ms, 7033ms total)
T15B0 3034:602 JLINK_GetHardwareVersion()  returns 0x11170 (0000ms, 7033ms total)
T15B0 3034:602 JLINK_GetDLLVersion()  returns 63008 (0000ms, 7033ms total)
T15B0 3034:602 JLINK_GetFirmwareString(...) (0000ms, 7033ms total)
T15B0 3034:615 JLINK_GetDLLVersion()  returns 63008 (0000ms, 7033ms total)
T15B0 3034:615 JLINK_GetCompileDateTime() (0000ms, 7033ms total)
T15B0 3034:618 JLINK_GetFirmwareString(...) (0000ms, 7033ms total)
T15B0 3034:622 JLINK_GetHardwareVersion()  returns 0x11170 (0000ms, 7033ms total)
T15B0 3034:635 JLINK_TIF_Select(JLINKARM_TIF_SWD)  returns 0x00 (0001ms, 7034ms total)
T15B0 3034:636 JLINK_SetSpeed(5000) (0000ms, 7034ms total)
T15B0 3034:636 JLINK_GetId() >0x10B TIF>Found SW-DP with ID 0x1BA01477 >0x0D TIF> >0x28 TIF> >0x0D TIF> >0x28 TIF> >0x0D TIF> >0x28 TIF> >0x0D TIF> >0x28 TIF> >0x0D TIF> >0x21 TIF> >0x0D TIF> >0x28 TIF> >0x0D TIF> >0x28 TIF> >0x0D TIF> >0x28 TIF> >0x0D TIF> >0x21 TIF> >0x0D TIF> >0x21 TIF> >0x0D TIF> >0x28 TIF> >0x0D TIF> >0x21 TIF> >0x0D TIF> >0x21 TIF> >0x0D TIF> >0x28 TIF> >0x0D TIF> >0x21 TIF> >0x0D TIF> >0x21 TIF> >0x0D TIF> >0x28 TIF> >0x0D TIF> >0x21 TIF> >0x0D TIF> >0x21 TIF> >0x0D TIF>
 >0x28 TIF> >0x0D TIF> >0x21 TIF> >0x0D TIF> >0x21 TIF> >0x0D TIF> >0x28 TIF> >0x0D TIF> >0x21 TIF> >0x0D TIF> >0x21 TIF> >0x0D TIF> >0x28 TIF> >0x0D TIF> >0x21 TIF> >0x0D TIF> >0x21 TIF> >0x10B TIF>Found SW-DP with ID 0x1BA01477 >0x0D TIF> >0x28 TIF> >0x0D TIF> >0x28 TIF> >0x0D TIF> >0x28 TIF> >0x0D TIF> >0x28 TIF> >0x0D TIF> >0x21 TIF> >0x0D TIF> >0x28 TIF>Scanning AP map to find all available APs >0x0D TIF> >0x28 TIF> >0x0D TIF> >0x21 TIF> >0x0D TIF> >0x21 TIF> >0x0D TIF> >0x28 TIF> >0x0D TIF>
 >0x21 TIF> >0x0D TIF> >0x21 TIF>AP[1]: Stopped AP scan as end of AP map has been reachedAP[0]: AHB-AP (IDR: 0x14770011)Iterating through AP map to find AHB-AP to use >0x42 TIF> >0x28 TIF> >0x0D TIF> >0x28 TIF> >0x0D TIF> >0x21 TIF> >0x0D TIF> >0x21 TIF> >0x42 TIF> >0x28 TIF> >0x0D TIF> >0x28 TIF> >0x0D TIF> >0x28 TIF> >0x0D TIF> >0x21 TIF> >0x0D TIF> >0x21 TIF>AP[0]: Core foundAP[0]: AHB-AP ROM base: 0xE00FF000 >0x0D TIF> >0x28 TIF> >0x0D TIF> >0x28 TIF> >0x0D TIF> >0x28 TIF> >0x0D TIF> >0x21 TIF>
 >0x0D TIF> >0x21 TIF>CPUID register: 0x411FC231. Implementer code: 0x41 (ARM)Found Cortex-M3 r1p1, Little endian. -- CPU_ReadMem(4 bytes @ 0xE000EDF0) -- CPU_WriteMem(4 bytes @ 0xE000EDF0) -- CPU_ReadMem(4 bytes @ 0xE0002000)FPUnit: 6 code (BP) slots and 2 literal slots -- CPU_ReadMem(4 bytes @ 0xE000EDFC) -- CPU_WriteMem(4 bytes @ 0xE000EDFC) -- CPU_ReadMem(4 bytes @ 0xE0001000) -- CPU_WriteMem(4 bytes @ 0xE0001000) -- CPU_ReadMem(4 bytes @ 0xE000ED88) -- CPU_WriteMem(4 bytes @ 0xE000ED88)
 -- CPU_ReadMem(4 bytes @ 0xE000ED88) -- CPU_WriteMem(4 bytes @ 0xE000ED88)CoreSight components:ROMTbl[0] @ E00FF000 -- CPU_ReadMem(16 bytes @ 0xE00FF000) -- CPU_ReadMem(16 bytes @ 0xE000EFF0) -- CPU_ReadMem(16 bytes @ 0xE000EFE0)ROMTbl[0][0]: E000E000, CID: B105E00D, PID: 001BB000 SCS -- CPU_ReadMem(16 bytes @ 0xE0001FF0) -- CPU_ReadMem(16 bytes @ 0xE0001FE0)ROMTbl[0][1]: E0001000, CID: B105E00D, PID: 001BB002 DWT -- CPU_ReadMem(16 bytes @ 0xE0002FF0) -- CPU_ReadMem(16 bytes @ 0xE0002FE0)
ROMTbl[0][2]: E0002000, CID: B105E00D, PID: 000BB003 FPB -- CPU_ReadMem(16 bytes @ 0xE0000FF0) -- CPU_ReadMem(16 bytes @ 0xE0000FE0)ROMTbl[0][3]: E0000000, CID: B105E00D, PID: 001BB001 ITM -- CPU_ReadMem(16 bytes @ 0xE00FF010) -- CPU_ReadMem(16 bytes @ 0xE0040FF0) -- CPU_ReadMem(16 bytes @ 0xE0040FE0)ROMTbl[0][4]: E0040000, CID: B105900D, PID: 001BB923 TPIU-Lite -- CPU_ReadMem(16 bytes @ 0xE0041FF0) -- CPU_ReadMem(16 bytes @ 0xE0041FE0)ROMTbl[0][5]: E0041000, CID: B105900D, PID: 101BB924 ETM-M3
 >0x0D TIF> >0x21 TIF>  returns 0x1BA01477 (0258ms, 7292ms total)
T15B0 3034:894 JLINK_GetDLLVersion()  returns 63008 (0000ms, 7292ms total)
T15B0 3034:894 JLINK_CORE_GetFound()  returns 0x30000FF (0000ms, 7292ms total)
T15B0 3034:894 JLINK_GetDebugInfo(0x100 = JLINKARM_ROM_TABLE_ADDR_INDEX) -- Value=0xE00FF000  returns 0x00 (0000ms, 7292ms total)
T15B0 3034:900 JLINK_GetDebugInfo(0x100 = JLINKARM_ROM_TABLE_ADDR_INDEX) -- Value=0xE00FF000  returns 0x00 (0000ms, 7292ms total)
T15B0 3034:900 JLINK_GetDebugInfo(0x101 = JLINKARM_DEBUG_INFO_ETM_ADDR_INDEX) -- Value=0xE0041000  returns 0x00 (0000ms, 7292ms total)
T15B0 3034:900 JLINK_ReadMemEx(0xE0041FD0, 0x0020 Bytes, ..., Flags = 0x02000004) -- CPU_ReadMem(32 bytes @ 0xE0041FD0) - Data: 04 00 00 00 00 00 00 00 00 00 00 00 00 00 00 00 ...  returns 0x20 (0001ms, 7293ms total)
T15B0 3034:901 JLINK_GetDebugInfo(0x102 = JLINKARM_DEBUG_INFO_MTB_ADDR_INDEX) -- Value=0x00000000  returns 0x00 (0000ms, 7293ms total)
T15B0 3034:901 JLINK_GetDebugInfo(0x103 = JLINKARM_DEBUG_INFO_TPIU_ADDR_INDEX) -- Value=0xE0040000  returns 0x00 (0000ms, 7293ms total)
T15B0 3034:901 JLINK_GetDebugInfo(0x104 = JLINKARM_DEBUG_INFO_ITM_ADDR_INDEX) -- Value=0xE0000000  returns 0x00 (0000ms, 7293ms total)
T15B0 3034:901 JLINK_GetDebugInfo(0x105 = JLINKARM_DEBUG_INFO_DWT_ADDR_INDEX) -- Value=0xE0001000  returns 0x00 (0000ms, 7293ms total)
T15B0 3034:901 JLINK_GetDebugInfo(0x106 = JLINKARM_DEBUG_INFO_FPB_ADDR_INDEX) -- Value=0xE0002000  returns 0x00 (0000ms, 7293ms total)
T15B0 3034:901 JLINK_GetDebugInfo(0x107 = JLINKARM_DEBUG_INFO_NVIC_ADDR_INDEX) -- Value=0xE000E000  returns 0x00 (0000ms, 7293ms total)
T15B0 3034:901 JLINK_GetDebugInfo(0x10C = JLINKARM_DEBUG_INFO_DBG_ADDR_INDEX) -- Value=0xE000EDF0  returns 0x00 (0000ms, 7293ms total)
T15B0 3034:901 JLINK_GetDebugInfo(0x01 = Unknown) -- Value=0x00000000  returns 0x00 (0000ms, 7293ms total)
T15B0 3034:901 JLINK_ReadMemU32(0xE000ED00, 0x0001 Items, ...) -- CPU_ReadMem(4 bytes @ 0xE000ED00) - Data: 31 C2 1F 41  returns 0x01 (0001ms, 7294ms total)
T15B0 3034:902 JLINK_GetDebugInfo(0x10F = JLINKARM_DEBUG_INFO_HAS_CORTEX_M_SECURITY_EXT_INDEX) -- Value=0x00000000  returns 0x00 (0000ms, 7294ms total)
T15B0 3034:902 JLINK_SetResetType(JLINKARM_CM3_RESET_TYPE_NORMAL)  returns JLINKARM_CM3_RESET_TYPE_NORMAL (0000ms, 7294ms total)
T15B0 3034:902 JLINK_Reset() -- CPU is running -- CPU_WriteMem(4 bytes @ 0xE000EDF0) -- CPU is running -- CPU_WriteMem(4 bytes @ 0xE000EDFC)Reset: Halt core after reset via DEMCR.VC_CORERESET. >0x35 TIF>Reset: Reset device via AIRCR.SYSRESETREQ. -- CPU is running -- CPU_WriteMem(4 bytes @ 0xE000ED0C) >0x0D TIF> >0x28 TIF> -- CPU_ReadMem(4 bytes @ 0xE000EDF0) -- CPU_ReadMem(4 bytes @ 0xE000EDF0) -- CPU is running -- CPU_WriteMem(4 bytes @ 0xE000EDF0) -- CPU is running -- CPU_WriteMem(4 bytes @ 0xE000EDFC)
 -- CPU_ReadMem(4 bytes @ 0xE000EDF0) -- CPU_WriteMem(4 bytes @ 0xE0002000) -- CPU_ReadMem(4 bytes @ 0xE000EDFC) -- CPU_ReadMem(4 bytes @ 0xE0001000) (0082ms, 7376ms total)
T15B0 3034:985 JLINK_Halt()  returns 0x00 (0000ms, 7376ms total)
T15B0 3034:985 JLINK_ReadMemU32(0xE000EDF0, 0x0001 Items, ...) -- CPU_ReadMem(4 bytes @ 0xE000EDF0) - Data: 03 00 03 00  returns 0x01 (0001ms, 7377ms total)
T15B0 3034:986 JLINK_WriteU32(0xE000EDF0, 0xA05F0003) -- CPU_WriteMem(4 bytes @ 0xE000EDF0)  returns 0x00 (0001ms, 7378ms total)
T15B0 3034:987 JLINK_WriteU32(0xE000EDFC, 0x01000000) -- CPU_WriteMem(4 bytes @ 0xE000EDFC)  returns 0x00 (0001ms, 7379ms total)
T15B0 3035:027 JLINK_GetHWStatus(...)  returns 0x00 (0001ms, 7380ms total)
T15B0 3035:040 JLINK_GetNumBPUnits(Type = 0xFFFFFF00)  returns 0x06 (0000ms, 7380ms total)
T15B0 3035:040 JLINK_GetNumBPUnits(Type = 0xF0)  returns 0x2000 (0000ms, 7380ms total)
T15B0 3035:040 JLINK_GetNumWPUnits()  returns 0x04 (0000ms, 7380ms total)
T15B0 3035:050 JLINK_GetSpeed()  returns 0xFA0 (0000ms, 7380ms total)
T15B0 3035:057 JLINK_ReadMemU32(0xE000E004, 0x0001 Items, ...) -- CPU_ReadMem(4 bytes @ 0xE000E004) - Data: 01 00 00 00  returns 0x01 (0001ms, 7381ms total)
T15B0 3035:058 JLINK_ReadMemU32(0xE000E004, 0x0001 Items, ...) -- CPU_ReadMem(4 bytes @ 0xE000E004) - Data: 01 00 00 00  returns 0x01 (0001ms, 7382ms total)
T15B0 3035:059 JLINK_WriteMemEx(0xE0001000, 0x001C Bytes, ..., Flags = 0x02000004) - Data: 01 00 00 00 00 00 00 00 00 00 00 00 00 00 00 00 ... -- CPU_WriteMem(28 bytes @ 0xE0001000)  returns 0x1C (0001ms, 7383ms total)
T15B0 3035:060 JLINK_Halt()  returns 0x00 (0001ms, 7384ms total)
T15B0 3035:061 JLINK_IsHalted()  returns TRUE (0000ms, 7384ms total)
T15B0 3035:064 JLINK_WriteMem(0x20000000, 0x0164 Bytes, ...) - Data: 00 BE 0A E0 0D 78 2D 06 68 40 08 24 40 00 00 D3 ... -- CPU_WriteMem(356 bytes @ 0x20000000)  returns 0x164 (0006ms, 7390ms total)
T15B0 3035:070 JLINK_WriteReg(R0, 0x08000000)  returns 0x00 (0000ms, 7390ms total)
T15B0 3035:070 JLINK_WriteReg(R1, 0x00B71B00)  returns 0x00 (0000ms, 7390ms total)
T15B0 3035:070 JLINK_WriteReg(R2, 0x00000001)  returns 0x00 (0000ms, 7390ms total)
T15B0 3035:070 JLINK_WriteReg(R3, 0x00000000)  returns 0x00 (0000ms, 7390ms total)
T15B0 3035:070 JLINK_WriteReg(R4, 0x00000000)  returns 0x00 (0000ms, 7390ms total)
T15B0 3035:070 JLINK_WriteReg(R5, 0x00000000)  returns 0x00 (0000ms, 7390ms total)
T15B0 3035:070 JLINK_WriteReg(R6, 0x00000000)  returns 0x00 (0000ms, 7390ms total)
T15B0 3035:070 JLINK_WriteReg(R7, 0x00000000)  returns 0x00 (0000ms, 7390ms total)
T15B0 3035:070 JLINK_WriteReg(R8, 0x00000000)  returns 0x00 (0000ms, 7390ms total)
T15B0 3035:070 JLINK_WriteReg(R9, 0x20000160)  returns 0x00 (0000ms, 7390ms total)
T15B0 3035:070 JLINK_WriteReg(R10, 0x00000000)  returns 0x00 (0000ms, 7390ms total)
T15B0 3035:070 JLINK_WriteReg(R11, 0x00000000)  returns 0x00 (0000ms, 7390ms total)
T15B0 3035:070 JLINK_WriteReg(R12, 0x00000000)  returns 0x00 (0000ms, 7390ms total)
T15B0 3035:070 JLINK_WriteReg(R13 (SP), 0x20001000)  returns 0x00 (0000ms, 7390ms total)
T15B0 3035:070 JLINK_WriteReg(R14, 0x20000001)  returns 0x00 (0000ms, 7390ms total)
T15B0 3035:070 JLINK_WriteReg(R15 (PC), 0x20000038)  returns 0x00 (0000ms, 7390ms total)
T15B0 3035:070 JLINK_WriteReg(XPSR, 0x01000000)  returns 0x00 (0000ms, 7390ms total)
T15B0 3035:070 JLINK_WriteReg(MSP, 0x20001000)  returns 0x00 (0000ms, 7390ms total)
T15B0 3035:070 JLINK_WriteReg(PSP, 0x20001000)  returns 0x00 (0000ms, 7390ms total)
T15B0 3035:070 JLINK_WriteReg(CFBP, 0x00000000)  returns 0x00 (0000ms, 7390ms total)
T15B0 3035:070 JLINK_SetBPEx(Addr = 0x20000000, Type = 0xFFFFFFF2) -- CPU_ReadMem(2 bytes @ 0x20000000)  returns 0x00000001 (0000ms, 7390ms total)
T15B0 3035:070 JLINK_Go() -- CPU_WriteMem(2 bytes @ 0x20000000) -- CPU_ReadMem(4 bytes @ 0xE0001000) -- CPU_WriteMem(4 bytes @ 0xE0002008) -- CPU_WriteMem(4 bytes @ 0xE000200C) -- CPU_WriteMem(4 bytes @ 0xE0002010) -- CPU_WriteMem(4 bytes @ 0xE0002014) -- CPU_WriteMem(4 bytes @ 0xE0002018) -- CPU_WriteMem(4 bytes @ 0xE000201C) -- CPU_WriteMem(4 bytes @ 0xE0001004) (0009ms, 7399ms total)
T15B0 3035:079 JLINK_IsHalted() -- CPU_ReadMem(2 bytes @ 0x20000000)  returns TRUE (0004ms, 7403ms total)
T15B0 3035:083 JLINK_ReadReg(R15 (PC))  returns 0x20000000 (0000ms, 7399ms total)
T15B0 3035:083 JLINK_ClrBPEx(BPHandle = 0x00000001)  returns 0x00 (0000ms, 7399ms total)
T15B0 3035:083 JLINK_ReadReg(R0)  returns 0x00000000 (0000ms, 7399ms total)
T15B0 3035:084 JLINK_WriteReg(R0, 0x08000000)  returns 0x00 (0000ms, 7399ms total)
T15B0 3035:084 JLINK_WriteReg(R1, 0x00B71B00)  returns 0x00 (0000ms, 7399ms total)
T15B0 3035:084 JLINK_WriteReg(R2, 0x00000001)  returns 0x00 (0000ms, 7399ms total)
T15B0 3035:084 JLINK_WriteReg(R3, 0x00000000)  returns 0x00 (0000ms, 7399ms total)
T15B0 3035:084 JLINK_WriteReg(R4, 0x00000000)  returns 0x00 (0000ms, 7399ms total)
T15B0 3035:084 JLINK_WriteReg(R5, 0x00000000)  returns 0x00 (0000ms, 7399ms total)
T15B0 3035:084 JLINK_WriteReg(R6, 0x00000000)  returns 0x00 (0000ms, 7399ms total)
T15B0 3035:084 JLINK_WriteReg(R7, 0x00000000)  returns 0x00 (0000ms, 7399ms total)
T15B0 3035:084 JLINK_WriteReg(R8, 0x00000000)  returns 0x00 (0000ms, 7399ms total)
T15B0 3035:084 JLINK_WriteReg(R9, 0x20000160)  returns 0x00 (0000ms, 7399ms total)
T15B0 3035:084 JLINK_WriteReg(R10, 0x00000000)  returns 0x00 (0000ms, 7399ms total)
T15B0 3035:084 JLINK_WriteReg(R11, 0x00000000)  returns 0x00 (0000ms, 7399ms total)
T15B0 3035:084 JLINK_WriteReg(R12, 0x00000000)  returns 0x00 (0000ms, 7399ms total)
T15B0 3035:084 JLINK_WriteReg(R13 (SP), 0x20001000)  returns 0x00 (0000ms, 7399ms total)
T15B0 3035:084 JLINK_WriteReg(R14, 0x20000001)  returns 0x00 (0000ms, 7399ms total)
T15B0 3035:084 JLINK_WriteReg(R15 (PC), 0x2000007C)  returns 0x00 (0000ms, 7399ms total)
T15B0 3035:084 JLINK_WriteReg(XPSR, 0x01000000)  returns 0x00 (0000ms, 7399ms total)
T15B0 3035:084 JLINK_WriteReg(MSP, 0x20001000)  returns 0x00 (0000ms, 7399ms total)
T15B0 3035:084 JLINK_WriteReg(PSP, 0x20001000)  returns 0x00 (0000ms, 7399ms total)
T15B0 3035:084 JLINK_WriteReg(CFBP, 0x00000000)  returns 0x00 (0000ms, 7399ms total)
T15B0 3035:084 JLINK_SetBPEx(Addr = 0x20000000, Type = 0xFFFFFFF2)  returns 0x00000002 (0000ms, 7399ms total)
T15B0 3035:084 JLINK_Go() -- CPU_ReadMem(4 bytes @ 0xE0001000) (0003ms, 7402ms total)
T15B0 3035:088 JLINK_IsHalted()  returns FALSE (0000ms, 7402ms total)
T15B0 3035:150 JLINK_IsHalted() -- CPU_ReadMem(2 bytes @ 0x20000000)  returns TRUE (0004ms, 7406ms total)
T15B0 3035:154 JLINK_ReadReg(R15 (PC))  returns 0x20000000 (0001ms, 7403ms total)
T15B0 3035:155 JLINK_ClrBPEx(BPHandle = 0x00000002)  returns 0x00 (0000ms, 7403ms total)
T15B0 3035:155 JLINK_ReadReg(R0)  returns 0x00000000 (0000ms, 7403ms total)
T15B0 3035:208 JLINK_WriteReg(R0, 0x00000001)  returns 0x00 (0000ms, 7403ms total)
T15B0 3035:208 JLINK_WriteReg(R1, 0x00B71B00)  returns 0x00 (0001ms, 7404ms total)
T15B0 3035:209 JLINK_WriteReg(R2, 0x00000001)  returns 0x00 (0000ms, 7404ms total)
T15B0 3035:209 JLINK_WriteReg(R3, 0x00000000)  returns 0x00 (0000ms, 7404ms total)
T15B0 3035:209 JLINK_WriteReg(R4, 0x00000000)  returns 0x00 (0000ms, 7404ms total)
T15B0 3035:209 JLINK_WriteReg(R5, 0x00000000)  returns 0x00 (0000ms, 7404ms total)
T15B0 3035:209 JLINK_WriteReg(R6, 0x00000000)  returns 0x00 (0000ms, 7404ms total)
T15B0 3035:209 JLINK_WriteReg(R7, 0x00000000)  returns 0x00 (0000ms, 7404ms total)
T15B0 3035:209 JLINK_WriteReg(R8, 0x00000000)  returns 0x00 (0000ms, 7404ms total)
T15B0 3035:209 JLINK_WriteReg(R9, 0x20000160)  returns 0x00 (0000ms, 7404ms total)
T15B0 3035:209 JLINK_WriteReg(R10, 0x00000000)  returns 0x00 (0000ms, 7404ms total)
T15B0 3035:209 JLINK_WriteReg(R11, 0x00000000)  returns 0x00 (0000ms, 7404ms total)
T15B0 3035:209 JLINK_WriteReg(R12, 0x00000000)  returns 0x00 (0000ms, 7404ms total)
T15B0 3035:209 JLINK_WriteReg(R13 (SP), 0x20001000)  returns 0x00 (0000ms, 7404ms total)
T15B0 3035:209 JLINK_WriteReg(R14, 0x20000001)  returns 0x00 (0000ms, 7404ms total)
T15B0 3035:210 JLINK_WriteReg(R15 (PC), 0x2000006A)  returns 0x00 (0000ms, 7404ms total)
T15B0 3035:210 JLINK_WriteReg(XPSR, 0x01000000)  returns 0x00 (0000ms, 7404ms total)
T15B0 3035:210 JLINK_WriteReg(MSP, 0x20001000)  returns 0x00 (0000ms, 7404ms total)
T15B0 3035:210 JLINK_WriteReg(PSP, 0x20001000)  returns 0x00 (0000ms, 7404ms total)
T15B0 3035:210 JLINK_WriteReg(CFBP, 0x00000000)  returns 0x00 (0000ms, 7404ms total)
T15B0 3035:210 JLINK_SetBPEx(Addr = 0x20000000, Type = 0xFFFFFFF2)  returns 0x00000003 (0000ms, 7404ms total)
T15B0 3035:210 JLINK_Go() -- CPU_ReadMem(4 bytes @ 0xE0001000) (0003ms, 7407ms total)
T15B0 3035:213 JLINK_IsHalted() -- CPU_ReadMem(2 bytes @ 0x20000000)  returns TRUE (0006ms, 7413ms total)
T15B0 3035:219 JLINK_ReadReg(R15 (PC))  returns 0x20000000 (0000ms, 7407ms total)
T15B0 3035:219 JLINK_ClrBPEx(BPHandle = 0x00000003)  returns 0x00 (0000ms, 7407ms total)
T15B0 3035:219 JLINK_ReadReg(R0)  returns 0x00000000 (0000ms, 7407ms total)
T15B0 3035:236 JLINK_WriteMem(0x20000000, 0x0164 Bytes, ...) - Data: 00 BE 0A E0 0D 78 2D 06 68 40 08 24 40 00 00 D3 ... -- CPU_WriteMem(356 bytes @ 0x20000000)  returns 0x164 (0005ms, 7412ms total)
T15B0 3035:241 JLINK_WriteReg(R0, 0x08000000)  returns 0x00 (0000ms, 7412ms total)
T15B0 3035:241 JLINK_WriteReg(R1, 0x00B71B00)  returns 0x00 (0000ms, 7412ms total)
T15B0 3035:241 JLINK_WriteReg(R2, 0x00000002)  returns 0x00 (0000ms, 7412ms total)
T15B0 3035:242 JLINK_WriteReg(R3, 0x00000000)  returns 0x00 (0000ms, 7412ms total)
T15B0 3035:242 JLINK_WriteReg(R4, 0x00000000)  returns 0x00 (0000ms, 7412ms total)
T15B0 3035:242 JLINK_WriteReg(R5, 0x00000000)  returns 0x00 (0000ms, 7412ms total)
T15B0 3035:242 JLINK_WriteReg(R6, 0x00000000)  returns 0x00 (0000ms, 7412ms total)
T15B0 3035:242 JLINK_WriteReg(R7, 0x00000000)  returns 0x00 (0000ms, 7412ms total)
T15B0 3035:242 JLINK_WriteReg(R8, 0x00000000)  returns 0x00 (0000ms, 7412ms total)
T15B0 3035:242 JLINK_WriteReg(R9, 0x20000160)  returns 0x00 (0000ms, 7412ms total)
T15B0 3035:243 JLINK_WriteReg(R10, 0x00000000)  returns 0x00 (0000ms, 7413ms total)
T15B0 3035:243 JLINK_WriteReg(R11, 0x00000000)  returns 0x00 (0000ms, 7413ms total)
T15B0 3035:243 JLINK_WriteReg(R12, 0x00000000)  returns 0x00 (0000ms, 7413ms total)
T15B0 3035:243 JLINK_WriteReg(R13 (SP), 0x20001000)  returns 0x00 (0000ms, 7413ms total)
T15B0 3035:243 JLINK_WriteReg(R14, 0x20000001)  returns 0x00 (0000ms, 7413ms total)
T15B0 3035:243 JLINK_WriteReg(R15 (PC), 0x20000038)  returns 0x00 (0000ms, 7413ms total)
T15B0 3035:243 JLINK_WriteReg(XPSR, 0x01000000)  returns 0x00 (0000ms, 7413ms total)
T15B0 3035:243 JLINK_WriteReg(MSP, 0x20001000)  returns 0x00 (0000ms, 7413ms total)
T15B0 3035:243 JLINK_WriteReg(PSP, 0x20001000)  returns 0x00 (0000ms, 7413ms total)
T15B0 3035:243 JLINK_WriteReg(CFBP, 0x00000000)  returns 0x00 (0000ms, 7413ms total)
T15B0 3035:243 JLINK_SetBPEx(Addr = 0x20000000, Type = 0xFFFFFFF2) -- CPU_ReadMem(2 bytes @ 0x20000000)  returns 0x00000004 (0001ms, 7414ms total)
T15B0 3035:244 JLINK_Go() -- CPU_WriteMem(2 bytes @ 0x20000000) -- CPU_ReadMem(4 bytes @ 0xE0001000) (0005ms, 7419ms total)
T15B0 3035:249 JLINK_IsHalted() -- CPU_ReadMem(2 bytes @ 0x20000000)  returns TRUE (0005ms, 7424ms total)
T15B0 3035:254 JLINK_ReadReg(R15 (PC))  returns 0x20000000 (0000ms, 7419ms total)
T15B0 3035:254 JLINK_ClrBPEx(BPHandle = 0x00000004)  returns 0x00 (0000ms, 7419ms total)
T15B0 3035:254 JLINK_ReadReg(R0)  returns 0x00000000 (0000ms, 7419ms total)
T15B0 3035:255 JLINK_WriteMem(0x20000164, 0x029C Bytes, ...) - Data: 30 88 00 20 51 03 00 08 59 03 00 08 5B 03 00 08 ... -- CPU_WriteMem(668 bytes @ 0x20000164)  returns 0x29C (0009ms, 7428ms total)
T15B0 3035:264 JLINK_WriteMem(0x20000400, 0x0164 Bytes, ...) - Data: 11 46 FF F7 E9 FF 07 F0 47 FC 01 F0 A1 FE 03 B4 ... -- CPU_WriteMem(356 bytes @ 0x20000400)  returns 0x164 (0005ms, 7433ms total)
T15B0 3035:269 JLINK_WriteReg(R0, 0x08000000)  returns 0x00 (0000ms, 7433ms total)
T15B0 3035:269 JLINK_WriteReg(R1, 0x00000400)  returns 0x00 (0000ms, 7433ms total)
T15B0 3035:269 JLINK_WriteReg(R2, 0x20000164)  returns 0x00 (0000ms, 7433ms total)
T15B0 3035:269 JLINK_WriteReg(R3, 0x00000000)  returns 0x00 (0000ms, 7433ms total)
T15B0 3035:269 JLINK_WriteReg(R4, 0x00000000)  returns 0x00 (0000ms, 7433ms total)
T15B0 3035:269 JLINK_WriteReg(R5, 0x00000000)  returns 0x00 (0000ms, 7433ms total)
T15B0 3035:269 JLINK_WriteReg(R6, 0x00000000)  returns 0x00 (0000ms, 7433ms total)
T15B0 3035:269 JLINK_WriteReg(R7, 0x00000000)  returns 0x00 (0001ms, 7434ms total)
T15B0 3035:270 JLINK_WriteReg(R8, 0x00000000)  returns 0x00 (0000ms, 7434ms total)
T15B0 3035:270 JLINK_WriteReg(R9, 0x20000160)  returns 0x00 (0000ms, 7434ms total)
T15B0 3035:270 JLINK_WriteReg(R10, 0x00000000)  returns 0x00 (0000ms, 7434ms total)
T15B0 3035:270 JLINK_WriteReg(R11, 0x00000000)  returns 0x00 (0000ms, 7434ms total)
T15B0 3035:270 JLINK_WriteReg(R12, 0x00000000)  returns 0x00 (0000ms, 7434ms total)
T15B0 3035:270 JLINK_WriteReg(R13 (SP), 0x20001000)  returns 0x00 (0001ms, 7435ms total)
T15B0 3035:271 JLINK_WriteReg(R14, 0x20000001)  returns 0x00 (0000ms, 7435ms total)
T15B0 3035:271 JLINK_WriteReg(R15 (PC), 0x200000F4)  returns 0x00 (0000ms, 7435ms total)
T15B0 3035:271 JLINK_WriteReg(XPSR, 0x01000000)  returns 0x00 (0000ms, 7435ms total)
T15B0 3035:271 JLINK_WriteReg(MSP, 0x20001000)  returns 0x00 (0000ms, 7435ms total)
T15B0 3035:271 JLINK_WriteReg(PSP, 0x20001000)  returns 0x00 (0000ms, 7435ms total)
T15B0 3035:271 JLINK_WriteReg(CFBP, 0x00000000)  returns 0x00 (0000ms, 7435ms total)
T15B0 3035:271 JLINK_SetBPEx(Addr = 0x20000000, Type = 0xFFFFFFF2)  returns 0x00000005 (0000ms, 7435ms total)
T15B0 3035:271 JLINK_Go() -- CPU_ReadMem(4 bytes @ 0xE0001000) (0003ms, 7438ms total)
T15B0 3035:274 JLINK_IsHalted()  returns FALSE (0002ms, 7440ms total)
T15B0 3035:291 JLINK_IsHalted()  returns FALSE (0001ms, 7439ms total)
T15B0 3035:294 JLINK_IsHalted()  returns FALSE (0001ms, 7439ms total)
T15B0 3035:297 JLINK_IsHalted()  returns FALSE (0001ms, 7439ms total)
T15B0 3035:299 JLINK_IsHalted()  returns FALSE (0001ms, 7439ms total)
T15B0 3035:301 JLINK_IsHalted()  returns FALSE (0001ms, 7439ms total)
T15B0 3035:304 JLINK_IsHalted()  returns FALSE (0000ms, 7438ms total)
T15B0 3035:306 JLINK_IsHalted() -- CPU_ReadMem(2 bytes @ 0x20000000)  returns TRUE (0005ms, 7443ms total)
T15B0 3035:311 JLINK_ReadReg(R15 (PC))  returns 0x20000000 (0000ms, 7438ms total)
T15B0 3035:311 JLINK_ClrBPEx(BPHandle = 0x00000005)  returns 0x00 (0000ms, 7438ms total)
T15B0 3035:311 JLINK_ReadReg(R0)  returns 0x00000000 (0000ms, 7438ms total)
T15B0 3035:313 JLINK_WriteMem(0x20000164, 0x029C Bytes, ...) - Data: 20 07 1E BF 20 FA 07 FC 46 EA 0C 06 20 37 B6 FB ... -- CPU_WriteMem(668 bytes @ 0x20000164)  returns 0x29C (0009ms, 7447ms total)
T15B0 3035:323 JLINK_WriteMem(0x20000400, 0x0164 Bytes, ...) - Data: 25 28 06 D0 D4 E9 01 21 90 47 20 6A 40 1C 20 62 ... -- CPU_WriteMem(356 bytes @ 0x20000400)  returns 0x164 (0005ms, 7452ms total)
T15B0 3035:328 JLINK_WriteReg(R0, 0x08000400)  returns 0x00 (0000ms, 7452ms total)
T15B0 3035:328 JLINK_WriteReg(R1, 0x00000400)  returns 0x00 (0000ms, 7452ms total)
T15B0 3035:328 JLINK_WriteReg(R2, 0x20000164)  returns 0x00 (0000ms, 7452ms total)
T15B0 3035:328 JLINK_WriteReg(R3, 0x00000000)  returns 0x00 (0000ms, 7452ms total)
T15B0 3035:328 JLINK_WriteReg(R4, 0x00000000)  returns 0x00 (0000ms, 7452ms total)
T15B0 3035:328 JLINK_WriteReg(R5, 0x00000000)  returns 0x00 (0000ms, 7452ms total)
T15B0 3035:328 JLINK_WriteReg(R6, 0x00000000)  returns 0x00 (0000ms, 7452ms total)
T15B0 3035:328 JLINK_WriteReg(R7, 0x00000000)  returns 0x00 (0001ms, 7453ms total)
T15B0 3035:329 JLINK_WriteReg(R8, 0x00000000)  returns 0x00 (0000ms, 7453ms total)
T15B0 3035:329 JLINK_WriteReg(R9, 0x20000160)  returns 0x00 (0000ms, 7453ms total)
T15B0 3035:329 JLINK_WriteReg(R10, 0x00000000)  returns 0x00 (0000ms, 7453ms total)
T15B0 3035:329 JLINK_WriteReg(R11, 0x00000000)  returns 0x00 (0000ms, 7453ms total)
T15B0 3035:329 JLINK_WriteReg(R12, 0x00000000)  returns 0x00 (0000ms, 7453ms total)
T15B0 3035:329 JLINK_WriteReg(R13 (SP), 0x20001000)  returns 0x00 (0000ms, 7453ms total)
T15B0 3035:329 JLINK_WriteReg(R14, 0x20000001)  returns 0x00 (0000ms, 7453ms total)
T15B0 3035:329 JLINK_WriteReg(R15 (PC), 0x200000F4)  returns 0x00 (0000ms, 7453ms total)
T15B0 3035:329 JLINK_WriteReg(XPSR, 0x01000000)  returns 0x00 (0000ms, 7453ms total)
T15B0 3035:329 JLINK_WriteReg(MSP, 0x20001000)  returns 0x00 (0000ms, 7453ms total)
T15B0 3035:329 JLINK_WriteReg(PSP, 0x20001000)  returns 0x00 (0001ms, 7454ms total)
T15B0 3035:330 JLINK_WriteReg(CFBP, 0x00000000)  returns 0x00 (0000ms, 7454ms total)
T15B0 3035:330 JLINK_SetBPEx(Addr = 0x20000000, Type = 0xFFFFFFF2)  returns 0x00000006 (0000ms, 7454ms total)
T15B0 3035:330 JLINK_Go() -- CPU_ReadMem(4 bytes @ 0xE0001000) (0002ms, 7456ms total)
T15B0 3035:333 JLINK_IsHalted()  returns FALSE (0000ms, 7457ms total)
T15B0 3035:338 JLINK_IsHalted()  returns FALSE (0001ms, 7458ms total)
T15B0 3035:340 JLINK_IsHalted()  returns FALSE (0001ms, 7458ms total)
T15B0 3035:343 JLINK_IsHalted()  returns FALSE (0000ms, 7457ms total)
T15B0 3035:345 JLINK_IsHalted()  returns FALSE (0000ms, 7457ms total)
T15B0 3035:351 JLINK_IsHalted()  returns FALSE (0001ms, 7458ms total)
T15B0 3035:353 JLINK_IsHalted()  returns FALSE (0001ms, 7458ms total)
T15B0 3035:356 JLINK_IsHalted()  returns FALSE (0001ms, 7458ms total)
T15B0 3035:358 JLINK_IsHalted()  returns FALSE (0001ms, 7458ms total)
T15B0 3035:361 JLINK_IsHalted()  returns FALSE (0001ms, 7458ms total)
T15B0 3035:364 JLINK_IsHalted() -- CPU_ReadMem(2 bytes @ 0x20000000)  returns TRUE (0005ms, 7462ms total)
T15B0 3035:369 JLINK_ReadReg(R15 (PC))  returns 0x20000000 (0000ms, 7457ms total)
T15B0 3035:369 JLINK_ClrBPEx(BPHandle = 0x00000006)  returns 0x00 (0000ms, 7457ms total)
T15B0 3035:369 JLINK_ReadReg(R0)  returns 0x00000000 (0000ms, 7457ms total)
T15B0 3035:371 JLINK_WriteMem(0x20000164, 0x029C Bytes, ...) - Data: AC AE 00 00 2D E9 F0 47 91 46 0F 46 80 46 04 46 ... -- CPU_WriteMem(668 bytes @ 0x20000164)  returns 0x29C (0009ms, 7466ms total)
T15B0 3035:380 JLINK_WriteMem(0x20000400, 0x0164 Bytes, ...) - Data: 04 46 FF F7 F3 FF 04 60 10 BD 09 68 4A 05 01 D5 ... -- CPU_WriteMem(356 bytes @ 0x20000400)  returns 0x164 (0005ms, 7471ms total)
T15B0 3035:385 JLINK_WriteReg(R0, 0x08000800)  returns 0x00 (0001ms, 7472ms total)
T15B0 3035:386 JLINK_WriteReg(R1, 0x00000400)  returns 0x00 (0000ms, 7472ms total)
T15B0 3035:386 JLINK_WriteReg(R2, 0x20000164)  returns 0x00 (0000ms, 7472ms total)
T15B0 3035:386 JLINK_WriteReg(R3, 0x00000000)  returns 0x00 (0000ms, 7472ms total)
T15B0 3035:386 JLINK_WriteReg(R4, 0x00000000)  returns 0x00 (0000ms, 7472ms total)
T15B0 3035:386 JLINK_WriteReg(R5, 0x00000000)  returns 0x00 (0000ms, 7472ms total)
T15B0 3035:386 JLINK_WriteReg(R6, 0x00000000)  returns 0x00 (0000ms, 7472ms total)
T15B0 3035:386 JLINK_WriteReg(R7, 0x00000000)  returns 0x00 (0000ms, 7472ms total)
T15B0 3035:386 JLINK_WriteReg(R8, 0x00000000)  returns 0x00 (0000ms, 7472ms total)
T15B0 3035:386 JLINK_WriteReg(R9, 0x20000160)  returns 0x00 (0000ms, 7472ms total)
T15B0 3035:386 JLINK_WriteReg(R10, 0x00000000)  returns 0x00 (0000ms, 7472ms total)
T15B0 3035:386 JLINK_WriteReg(R11, 0x00000000)  returns 0x00 (0000ms, 7472ms total)
T15B0 3035:386 JLINK_WriteReg(R12, 0x00000000)  returns 0x00 (0000ms, 7472ms total)
T15B0 3035:386 JLINK_WriteReg(R13 (SP), 0x20001000)  returns 0x00 (0001ms, 7473ms total)
T15B0 3035:387 JLINK_WriteReg(R14, 0x20000001)  returns 0x00 (0000ms, 7473ms total)
T15B0 3035:387 JLINK_WriteReg(R15 (PC), 0x200000F4)  returns 0x00 (0000ms, 7473ms total)
T15B0 3035:387 JLINK_WriteReg(XPSR, 0x01000000)  returns 0x00 (0000ms, 7473ms total)
T15B0 3035:387 JLINK_WriteReg(MSP, 0x20001000)  returns 0x00 (0000ms, 7473ms total)
T15B0 3035:387 JLINK_WriteReg(PSP, 0x20001000)  returns 0x00 (0000ms, 7473ms total)
T15B0 3035:387 JLINK_WriteReg(CFBP, 0x00000000)  returns 0x00 (0000ms, 7473ms total)
T15B0 3035:387 JLINK_SetBPEx(Addr = 0x20000000, Type = 0xFFFFFFF2)  returns 0x00000007 (0000ms, 7473ms total)
T15B0 3035:387 JLINK_Go() -- CPU_ReadMem(4 bytes @ 0xE0001000) (0003ms, 7476ms total)
T15B0 3035:390 JLINK_IsHalted()  returns FALSE (0001ms, 7477ms total)
T15B0 3035:398 JLINK_IsHalted()  returns FALSE (0001ms, 7477ms total)
T15B0 3035:401 JLINK_IsHalted()  returns FALSE (0000ms, 7476ms total)
T15B0 3035:403 JLINK_IsHalted()  returns FALSE (0001ms, 7477ms total)
T15B0 3035:406 JLINK_IsHalted()  returns FALSE (0001ms, 7477ms total)
T15B0 3035:409 JLINK_IsHalted()  returns FALSE (0000ms, 7476ms total)
T15B0 3035:411 JLINK_IsHalted()  returns FALSE (0000ms, 7476ms total)
T15B0 3035:413 JLINK_IsHalted()  returns FALSE (0001ms, 7477ms total)
T15B0 3035:416 JLINK_IsHalted()  returns FALSE (0001ms, 7477ms total)
T15B0 3035:418 JLINK_IsHalted()  returns FALSE (0001ms, 7477ms total)
T15B0 3035:421 JLINK_IsHalted() -- CPU_ReadMem(2 bytes @ 0x20000000)  returns TRUE (0004ms, 7480ms total)
T15B0 3035:425 JLINK_ReadReg(R15 (PC))  returns 0x20000000 (0000ms, 7476ms total)
T15B0 3035:425 JLINK_ClrBPEx(BPHandle = 0x00000007)  returns 0x00 (0000ms, 7476ms total)
T15B0 3035:425 JLINK_ReadReg(R0)  returns 0x00000000 (0001ms, 7477ms total)
T15B0 3035:427 JLINK_WriteMem(0x20000164, 0x029C Bytes, ...) - Data: ED E7 11 68 4F F0 FF 32 E9 E7 00 00 2D E9 FF 5F ... -- CPU_WriteMem(668 bytes @ 0x20000164)  returns 0x29C (0009ms, 7486ms total)
T15B0 3035:436 JLINK_WriteMem(0x20000400, 0x0164 Bytes, ...) - Data: 32 46 86 B0 00 91 CD E9 01 01 69 46 00 20 04 90 ... -- CPU_WriteMem(356 bytes @ 0x20000400)  returns 0x164 (0006ms, 7492ms total)
T15B0 3035:442 JLINK_WriteReg(R0, 0x08000C00)  returns 0x00 (0000ms, 7492ms total)
T15B0 3035:442 JLINK_WriteReg(R1, 0x00000400)  returns 0x00 (0000ms, 7492ms total)
T15B0 3035:442 JLINK_WriteReg(R2, 0x20000164)  returns 0x00 (0000ms, 7492ms total)
T15B0 3035:442 JLINK_WriteReg(R3, 0x00000000)  returns 0x00 (0000ms, 7492ms total)
T15B0 3035:442 JLINK_WriteReg(R4, 0x00000000)  returns 0x00 (0000ms, 7492ms total)
T15B0 3035:442 JLINK_WriteReg(R5, 0x00000000)  returns 0x00 (0000ms, 7492ms total)
T15B0 3035:442 JLINK_WriteReg(R6, 0x00000000)  returns 0x00 (0000ms, 7492ms total)
T15B0 3035:442 JLINK_WriteReg(R7, 0x00000000)  returns 0x00 (0000ms, 7492ms total)
T15B0 3035:442 JLINK_WriteReg(R8, 0x00000000)  returns 0x00 (0000ms, 7492ms total)
T15B0 3035:442 JLINK_WriteReg(R9, 0x20000160)  returns 0x00 (0001ms, 7493ms total)
T15B0 3035:443 JLINK_WriteReg(R10, 0x00000000)  returns 0x00 (0000ms, 7493ms total)
T15B0 3035:443 JLINK_WriteReg(R11, 0x00000000)  returns 0x00 (0000ms, 7493ms total)
T15B0 3035:443 JLINK_WriteReg(R12, 0x00000000)  returns 0x00 (0000ms, 7493ms total)
T15B0 3035:443 JLINK_WriteReg(R13 (SP), 0x20001000)  returns 0x00 (0000ms, 7493ms total)
T15B0 3035:443 JLINK_WriteReg(R14, 0x20000001)  returns 0x00 (0000ms, 7493ms total)
T15B0 3035:443 JLINK_WriteReg(R15 (PC), 0x200000F4)  returns 0x00 (0000ms, 7493ms total)
T15B0 3035:443 JLINK_WriteReg(XPSR, 0x01000000)  returns 0x00 (0000ms, 7493ms total)
T15B0 3035:443 JLINK_WriteReg(MSP, 0x20001000)  returns 0x00 (0000ms, 7493ms total)
T15B0 3035:443 JLINK_WriteReg(PSP, 0x20001000)  returns 0x00 (0000ms, 7493ms total)
T15B0 3035:443 JLINK_WriteReg(CFBP, 0x00000000)  returns 0x00 (0000ms, 7493ms total)
T15B0 3035:443 JLINK_SetBPEx(Addr = 0x20000000, Type = 0xFFFFFFF2)  returns 0x00000008 (0000ms, 7493ms total)
T15B0 3035:443 JLINK_Go() -- CPU_ReadMem(4 bytes @ 0xE0001000) (0003ms, 7496ms total)
T15B0 3035:446 JLINK_IsHalted()  returns FALSE (0001ms, 7497ms total)
T15B0 3035:448 JLINK_IsHalted()  returns FALSE (0001ms, 7497ms total)
T15B0 3035:451 JLINK_IsHalted()  returns FALSE (0001ms, 7497ms total)
T15B0 3035:453 JLINK_IsHalted()  returns FALSE (0001ms, 7497ms total)
T15B0 3035:456 JLINK_IsHalted()  returns FALSE (0000ms, 7496ms total)
T15B0 3035:462 JLINK_IsHalted()  returns FALSE (0001ms, 7497ms total)
T15B0 3035:464 JLINK_IsHalted()  returns FALSE (0001ms, 7497ms total)
T15B0 3035:467 JLINK_IsHalted()  returns FALSE (0000ms, 7496ms total)
T15B0 3035:469 JLINK_IsHalted()  returns FALSE (0000ms, 7496ms total)
T15B0 3035:471 JLINK_IsHalted()  returns FALSE (0001ms, 7497ms total)
T15B0 3035:474 JLINK_IsHalted()  returns FALSE (0000ms, 7496ms total)
T15B0 3035:476 JLINK_IsHalted()  returns FALSE (0000ms, 7496ms total)
T15B0 3035:478 JLINK_IsHalted() -- CPU_ReadMem(2 bytes @ 0x20000000)  returns TRUE (0005ms, 7501ms total)
T15B0 3035:483 JLINK_ReadReg(R15 (PC))  returns 0x20000000 (0000ms, 7496ms total)
T15B0 3035:483 JLINK_ClrBPEx(BPHandle = 0x00000008)  returns 0x00 (0000ms, 7496ms total)
T15B0 3035:483 JLINK_ReadReg(R0)  returns 0x00000000 (0000ms, 7496ms total)
T15B0 3035:485 JLINK_WriteMem(0x20000164, 0x029C Bytes, ...) - Data: F0 81 00 20 30 B5 B0 F1 0A 02 4F EA 90 0E 71 F1 ... -- CPU_WriteMem(668 bytes @ 0x20000164)  returns 0x29C (0008ms, 7504ms total)
T15B0 3035:493 JLINK_WriteMem(0x20000400, 0x0164 Bytes, ...) - Data: 79 FB 0B E1 20 78 80 06 01 D5 E0 69 00 E0 06 20 ... -- CPU_WriteMem(356 bytes @ 0x20000400)  returns 0x164 (0006ms, 7510ms total)
T15B0 3035:499 JLINK_WriteReg(R0, 0x08001000)  returns 0x00 (0000ms, 7510ms total)
T15B0 3035:499 JLINK_WriteReg(R1, 0x00000400)  returns 0x00 (0000ms, 7510ms total)
T15B0 3035:499 JLINK_WriteReg(R2, 0x20000164)  returns 0x00 (0000ms, 7510ms total)
T15B0 3035:499 JLINK_WriteReg(R3, 0x00000000)  returns 0x00 (0000ms, 7510ms total)
T15B0 3035:499 JLINK_WriteReg(R4, 0x00000000)  returns 0x00 (0000ms, 7510ms total)
T15B0 3035:499 JLINK_WriteReg(R5, 0x00000000)  returns 0x00 (0000ms, 7510ms total)
T15B0 3035:499 JLINK_WriteReg(R6, 0x00000000)  returns 0x00 (0000ms, 7510ms total)
T15B0 3035:499 JLINK_WriteReg(R7, 0x00000000)  returns 0x00 (0000ms, 7510ms total)
T15B0 3035:500 JLINK_WriteReg(R8, 0x00000000)  returns 0x00 (0000ms, 7510ms total)
T15B0 3035:500 JLINK_WriteReg(R9, 0x20000160)  returns 0x00 (0000ms, 7510ms total)
T15B0 3035:500 JLINK_WriteReg(R10, 0x00000000)  returns 0x00 (0000ms, 7510ms total)
T15B0 3035:500 JLINK_WriteReg(R11, 0x00000000)  returns 0x00 (0000ms, 7510ms total)
T15B0 3035:500 JLINK_WriteReg(R12, 0x00000000)  returns 0x00 (0000ms, 7510ms total)
T15B0 3035:500 JLINK_WriteReg(R13 (SP), 0x20001000)  returns 0x00 (0000ms, 7510ms total)
T15B0 3035:500 JLINK_WriteReg(R14, 0x20000001)  returns 0x00 (0000ms, 7510ms total)
T15B0 3035:500 JLINK_WriteReg(R15 (PC), 0x200000F4)  returns 0x00 (0000ms, 7510ms total)
T15B0 3035:500 JLINK_WriteReg(XPSR, 0x01000000)  returns 0x00 (0000ms, 7510ms total)
T15B0 3035:500 JLINK_WriteReg(MSP, 0x20001000)  returns 0x00 (0000ms, 7510ms total)
T15B0 3035:500 JLINK_WriteReg(PSP, 0x20001000)  returns 0x00 (0000ms, 7510ms total)
T15B0 3035:500 JLINK_WriteReg(CFBP, 0x00000000)  returns 0x00 (0001ms, 7511ms total)
T15B0 3035:501 JLINK_SetBPEx(Addr = 0x20000000, Type = 0xFFFFFFF2)  returns 0x00000009 (0000ms, 7511ms total)
T15B0 3035:501 JLINK_Go() -- CPU_ReadMem(4 bytes @ 0xE0001000) (0003ms, 7514ms total)
T15B0 3035:504 JLINK_IsHalted()  returns FALSE (0001ms, 7515ms total)
T15B0 3035:509 JLINK_IsHalted()  returns FALSE (0001ms, 7515ms total)
T15B0 3035:511 JLINK_IsHalted()  returns FALSE (0001ms, 7515ms total)
T15B0 3035:513 JLINK_IsHalted()  returns FALSE (0001ms, 7515ms total)
T15B0 3035:515 JLINK_IsHalted()  returns FALSE (0001ms, 7515ms total)
T15B0 3035:517 JLINK_IsHalted()  returns FALSE (0001ms, 7515ms total)
T15B0 3035:519 JLINK_IsHalted()  returns FALSE (0001ms, 7515ms total)
T15B0 3035:521 JLINK_IsHalted()  returns FALSE (0000ms, 7515ms total)
T15B0 3035:523 JLINK_IsHalted()  returns FALSE (0000ms, 7515ms total)
T15B0 3035:525 JLINK_IsHalted()  returns FALSE (0000ms, 7515ms total)
T15B0 3035:527 JLINK_IsHalted()  returns FALSE (0000ms, 7515ms total)
T15B0 3035:529 JLINK_IsHalted()  returns FALSE (0000ms, 7515ms total)
T15B0 3035:531 JLINK_IsHalted()  returns FALSE (0000ms, 7515ms total)
T15B0 3035:533 JLINK_IsHalted()  returns FALSE (0000ms, 7515ms total)
T15B0 3035:535 JLINK_IsHalted() -- CPU_ReadMem(2 bytes @ 0x20000000)  returns TRUE (0003ms, 7518ms total)
T15B0 3035:538 JLINK_ReadReg(R15 (PC))  returns 0x20000000 (0000ms, 7515ms total)
T15B0 3035:538 JLINK_ClrBPEx(BPHandle = 0x00000009)  returns 0x00 (0000ms, 7515ms total)
T15B0 3035:538 JLINK_ReadReg(R0)  returns 0x00000000 (0001ms, 7516ms total)
T15B0 3035:539 JLINK_WriteMem(0x20000164, 0x029C Bytes, ...) - Data: 65 21 A0 F1 01 08 00 F8 01 1C 09 98 0F A9 A1 EB ... -- CPU_WriteMem(668 bytes @ 0x20000164)  returns 0x29C (0009ms, 7525ms total)
T15B0 3035:548 JLINK_WriteMem(0x20000400, 0x0164 Bytes, ...) - Data: 05 DD 3E 21 02 F8 08 10 6D 1E 08 F1 01 08 40 7C ... -- CPU_WriteMem(356 bytes @ 0x20000400)  returns 0x164 (0005ms, 7530ms total)
T15B0 3035:553 JLINK_WriteReg(R0, 0x08001400)  returns 0x00 (0000ms, 7530ms total)
T15B0 3035:553 JLINK_WriteReg(R1, 0x00000400)  returns 0x00 (0000ms, 7530ms total)
T15B0 3035:553 JLINK_WriteReg(R2, 0x20000164)  returns 0x00 (0000ms, 7530ms total)
T15B0 3035:553 JLINK_WriteReg(R3, 0x00000000)  returns 0x00 (0000ms, 7530ms total)
T15B0 3035:553 JLINK_WriteReg(R4, 0x00000000)  returns 0x00 (0000ms, 7530ms total)
T15B0 3035:553 JLINK_WriteReg(R5, 0x00000000)  returns 0x00 (0000ms, 7530ms total)
T15B0 3035:553 JLINK_WriteReg(R6, 0x00000000)  returns 0x00 (0000ms, 7530ms total)
T15B0 3035:553 JLINK_WriteReg(R7, 0x00000000)  returns 0x00 (0000ms, 7530ms total)
T15B0 3035:553 JLINK_WriteReg(R8, 0x00000000)  returns 0x00 (0001ms, 7531ms total)
T15B0 3035:554 JLINK_WriteReg(R9, 0x20000160)  returns 0x00 (0000ms, 7531ms total)
T15B0 3035:554 JLINK_WriteReg(R10, 0x00000000)  returns 0x00 (0000ms, 7531ms total)
T15B0 3035:554 JLINK_WriteReg(R11, 0x00000000)  returns 0x00 (0000ms, 7531ms total)
T15B0 3035:554 JLINK_WriteReg(R12, 0x00000000)  returns 0x00 (0000ms, 7531ms total)
T15B0 3035:554 JLINK_WriteReg(R13 (SP), 0x20001000)  returns 0x00 (0000ms, 7531ms total)
T15B0 3035:554 JLINK_WriteReg(R14, 0x20000001)  returns 0x00 (0000ms, 7531ms total)
T15B0 3035:554 JLINK_WriteReg(R15 (PC), 0x200000F4)  returns 0x00 (0000ms, 7531ms total)
T15B0 3035:554 JLINK_WriteReg(XPSR, 0x01000000)  returns 0x00 (0000ms, 7531ms total)
T15B0 3035:554 JLINK_WriteReg(MSP, 0x20001000)  returns 0x00 (0000ms, 7531ms total)
T15B0 3035:554 JLINK_WriteReg(PSP, 0x20001000)  returns 0x00 (0000ms, 7531ms total)
T15B0 3035:554 JLINK_WriteReg(CFBP, 0x00000000)  returns 0x00 (0000ms, 7531ms total)
T15B0 3035:554 JLINK_SetBPEx(Addr = 0x20000000, Type = 0xFFFFFFF2)  returns 0x0000000A (0000ms, 7531ms total)
T15B0 3035:554 JLINK_Go() -- CPU_ReadMem(4 bytes @ 0xE0001000) (0003ms, 7534ms total)
T15B0 3035:557 JLINK_IsHalted()  returns FALSE (0000ms, 7534ms total)
T15B0 3035:559 JLINK_IsHalted()  returns FALSE (0001ms, 7535ms total)
T15B0 3035:562 JLINK_IsHalted()  returns FALSE (0000ms, 7534ms total)
T15B0 3035:568 JLINK_IsHalted()  returns FALSE (0001ms, 7535ms total)
T15B0 3035:571 JLINK_IsHalted()  returns FALSE (0000ms, 7534ms total)
T15B0 3035:573 JLINK_IsHalted()  returns FALSE (0000ms, 7534ms total)
T15B0 3035:576 JLINK_IsHalted()  returns FALSE (0000ms, 7534ms total)
T15B0 3035:578 JLINK_IsHalted()  returns FALSE (0001ms, 7535ms total)
T15B0 3035:580 JLINK_IsHalted()  returns FALSE (0001ms, 7535ms total)
T15B0 3035:583 JLINK_IsHalted()  returns FALSE (0001ms, 7535ms total)
T15B0 3035:586 JLINK_IsHalted()  returns FALSE (0001ms, 7535ms total)
T15B0 3035:588 JLINK_IsHalted() -- CPU_ReadMem(2 bytes @ 0x20000000)  returns TRUE (0005ms, 7539ms total)
T15B0 3035:593 JLINK_ReadReg(R15 (PC))  returns 0x20000000 (0000ms, 7534ms total)
T15B0 3035:593 JLINK_ClrBPEx(BPHandle = 0x0000000A)  returns 0x00 (0000ms, 7534ms total)
T15B0 3035:593 JLINK_ReadReg(R0)  returns 0x00000000 (0000ms, 7534ms total)
T15B0 3035:594 JLINK_WriteMem(0x20000164, 0x029C Bytes, ...) - Data: FF 30 70 47 42 68 42 B1 01 68 11 F8 01 3B 23 B1 ... -- CPU_WriteMem(668 bytes @ 0x20000164)  returns 0x29C (0008ms, 7542ms total)
T15B0 3035:603 JLINK_WriteMem(0x20000400, 0x0164 Bytes, ...) - Data: 02 D0 00 EB 80 00 40 08 C0 F3 81 57 01 2F 01 DD ... -- CPU_WriteMem(356 bytes @ 0x20000400)  returns 0x164 (0004ms, 7546ms total)
T15B0 3035:608 JLINK_WriteReg(R0, 0x08001800)  returns 0x00 (0000ms, 7546ms total)
T15B0 3035:608 JLINK_WriteReg(R1, 0x00000400)  returns 0x00 (0000ms, 7546ms total)
T15B0 3035:608 JLINK_WriteReg(R2, 0x20000164)  returns 0x00 (0000ms, 7546ms total)
T15B0 3035:608 JLINK_WriteReg(R3, 0x00000000)  returns 0x00 (0000ms, 7546ms total)
T15B0 3035:608 JLINK_WriteReg(R4, 0x00000000)  returns 0x00 (0001ms, 7547ms total)
T15B0 3035:609 JLINK_WriteReg(R5, 0x00000000)  returns 0x00 (0000ms, 7547ms total)
T15B0 3035:609 JLINK_WriteReg(R6, 0x00000000)  returns 0x00 (0000ms, 7547ms total)
T15B0 3035:609 JLINK_WriteReg(R7, 0x00000000)  returns 0x00 (0000ms, 7547ms total)
T15B0 3035:609 JLINK_WriteReg(R8, 0x00000000)  returns 0x00 (0000ms, 7547ms total)
T15B0 3035:609 JLINK_WriteReg(R9, 0x20000160)  returns 0x00 (0000ms, 7547ms total)
T15B0 3035:609 JLINK_WriteReg(R10, 0x00000000)  returns 0x00 (0000ms, 7547ms total)
T15B0 3035:609 JLINK_WriteReg(R11, 0x00000000)  returns 0x00 (0000ms, 7547ms total)
T15B0 3035:609 JLINK_WriteReg(R12, 0x00000000)  returns 0x00 (0000ms, 7547ms total)
T15B0 3035:609 JLINK_WriteReg(R13 (SP), 0x20001000)  returns 0x00 (0000ms, 7547ms total)
T15B0 3035:609 JLINK_WriteReg(R14, 0x20000001)  returns 0x00 (0000ms, 7547ms total)
T15B0 3035:609 JLINK_WriteReg(R15 (PC), 0x200000F4)  returns 0x00 (0000ms, 7547ms total)
T15B0 3035:609 JLINK_WriteReg(XPSR, 0x01000000)  returns 0x00 (0000ms, 7547ms total)
T15B0 3035:609 JLINK_WriteReg(MSP, 0x20001000)  returns 0x00 (0000ms, 7547ms total)
T15B0 3035:609 JLINK_WriteReg(PSP, 0x20001000)  returns 0x00 (0000ms, 7547ms total)
T15B0 3035:609 JLINK_WriteReg(CFBP, 0x00000000)  returns 0x00 (0000ms, 7547ms total)
T15B0 3035:609 JLINK_SetBPEx(Addr = 0x20000000, Type = 0xFFFFFFF2)  returns 0x0000000B (0000ms, 7547ms total)
T15B0 3035:609 JLINK_Go() -- CPU_ReadMem(4 bytes @ 0xE0001000) (0004ms, 7551ms total)
T15B0 3035:613 JLINK_IsHalted()  returns FALSE (0000ms, 7551ms total)
T15B0 3035:619 JLINK_IsHalted()  returns FALSE (0000ms, 7551ms total)
T15B0 3035:621 JLINK_IsHalted()  returns FALSE (0000ms, 7551ms total)
T15B0 3035:623 JLINK_IsHalted()  returns FALSE (0001ms, 7552ms total)
T15B0 3035:626 JLINK_IsHalted()  returns FALSE (0001ms, 7552ms total)
T15B0 3035:629 JLINK_IsHalted()  returns FALSE (0001ms, 7552ms total)
T15B0 3035:632 JLINK_IsHalted()  returns FALSE (0001ms, 7552ms total)
T15B0 3035:635 JLINK_IsHalted()  returns FALSE (0000ms, 7551ms total)
T15B0 3035:637 JLINK_IsHalted()  returns FALSE (0000ms, 7551ms total)
T15B0 3035:638 JLINK_IsHalted()  returns FALSE (0001ms, 7552ms total)
T15B0 3035:641 JLINK_IsHalted()  returns FALSE (0000ms, 7551ms total)
T15B0 3035:643 JLINK_IsHalted()  returns FALSE (0000ms, 7551ms total)
T15B0 3035:644 JLINK_IsHalted() -- CPU_ReadMem(2 bytes @ 0x20000000)  returns TRUE (0005ms, 7556ms total)
T15B0 3035:649 JLINK_ReadReg(R15 (PC))  returns 0x20000000 (0001ms, 7552ms total)
T15B0 3035:650 JLINK_ClrBPEx(BPHandle = 0x0000000B)  returns 0x00 (0000ms, 7552ms total)
T15B0 3035:650 JLINK_ReadReg(R0)  returns 0x00000000 (0000ms, 7552ms total)
T15B0 3035:651 JLINK_WriteMem(0x20000164, 0x029C Bytes, ...) - Data: 04 46 0D 46 01 D0 84 F0 00 44 00 21 08 46 4F F0 ... -- CPU_WriteMem(668 bytes @ 0x20000164)  returns 0x29C (0009ms, 7561ms total)
T15B0 3035:660 JLINK_WriteMem(0x20000400, 0x0164 Bytes, ...) - Data: 53 46 8B F8 00 00 88 F8 00 00 00 20 0A 90 0B 90 ... -- CPU_WriteMem(356 bytes @ 0x20000400)  returns 0x164 (0005ms, 7566ms total)
T15B0 3035:665 JLINK_WriteReg(R0, 0x08001C00)  returns 0x00 (0000ms, 7566ms total)
T15B0 3035:665 JLINK_WriteReg(R1, 0x00000400)  returns 0x00 (0000ms, 7566ms total)
T15B0 3035:665 JLINK_WriteReg(R2, 0x20000164)  returns 0x00 (0000ms, 7566ms total)
T15B0 3035:665 JLINK_WriteReg(R3, 0x00000000)  returns 0x00 (0000ms, 7566ms total)
T15B0 3035:665 JLINK_WriteReg(R4, 0x00000000)  returns 0x00 (0000ms, 7566ms total)
T15B0 3035:665 JLINK_WriteReg(R5, 0x00000000)  returns 0x00 (0000ms, 7566ms total)
T15B0 3035:666 JLINK_WriteReg(R6, 0x00000000)  returns 0x00 (0000ms, 7567ms total)
T15B0 3035:666 JLINK_WriteReg(R7, 0x00000000)  returns 0x00 (0000ms, 7567ms total)
T15B0 3035:666 JLINK_WriteReg(R8, 0x00000000)  returns 0x00 (0000ms, 7567ms total)
T15B0 3035:666 JLINK_WriteReg(R9, 0x20000160)  returns 0x00 (0000ms, 7567ms total)
T15B0 3035:666 JLINK_WriteReg(R10, 0x00000000)  returns 0x00 (0000ms, 7567ms total)
T15B0 3035:666 JLINK_WriteReg(R11, 0x00000000)  returns 0x00 (0000ms, 7567ms total)
T15B0 3035:666 JLINK_WriteReg(R12, 0x00000000)  returns 0x00 (0000ms, 7567ms total)
T15B0 3035:666 JLINK_WriteReg(R13 (SP), 0x20001000)  returns 0x00 (0000ms, 7567ms total)
T15B0 3035:666 JLINK_WriteReg(R14, 0x20000001)  returns 0x00 (0000ms, 7567ms total)
T15B0 3035:666 JLINK_WriteReg(R15 (PC), 0x200000F4)  returns 0x00 (0000ms, 7567ms total)
T15B0 3035:666 JLINK_WriteReg(XPSR, 0x01000000)  returns 0x00 (0000ms, 7567ms total)
T15B0 3035:666 JLINK_WriteReg(MSP, 0x20001000)  returns 0x00 (0000ms, 7567ms total)
T15B0 3035:666 JLINK_WriteReg(PSP, 0x20001000)  returns 0x00 (0000ms, 7567ms total)
T15B0 3035:666 JLINK_WriteReg(CFBP, 0x00000000)  returns 0x00 (0000ms, 7567ms total)
T15B0 3035:666 JLINK_SetBPEx(Addr = 0x20000000, Type = 0xFFFFFFF2)  returns 0x0000000C (0000ms, 7567ms total)
T15B0 3035:666 JLINK_Go() -- CPU_ReadMem(4 bytes @ 0xE0001000) (0004ms, 7571ms total)
T15B0 3035:670 JLINK_IsHalted()  returns FALSE (0001ms, 7572ms total)
T15B0 3035:676 JLINK_IsHalted()  returns FALSE (0001ms, 7572ms total)
T15B0 3035:678 JLINK_IsHalted()  returns FALSE (0001ms, 7572ms total)
T15B0 3035:681 JLINK_IsHalted()  returns FALSE (0001ms, 7572ms total)
T15B0 3035:683 JLINK_IsHalted()  returns FALSE (0001ms, 7572ms total)
T15B0 3035:686 JLINK_IsHalted()  returns FALSE (0001ms, 7572ms total)
T15B0 3035:688 JLINK_IsHalted()  returns FALSE (0001ms, 7572ms total)
T15B0 3035:690 JLINK_IsHalted()  returns FALSE (0001ms, 7572ms total)
T15B0 3035:693 JLINK_IsHalted()  returns FALSE (0001ms, 7572ms total)
T15B0 3035:696 JLINK_IsHalted()  returns FALSE (0000ms, 7571ms total)
T15B0 3035:698 JLINK_IsHalted()  returns FALSE (0001ms, 7572ms total)
T15B0 3035:700 JLINK_IsHalted() -- CPU_ReadMem(2 bytes @ 0x20000000)  returns TRUE (0005ms, 7576ms total)
T15B0 3035:705 JLINK_ReadReg(R15 (PC))  returns 0x20000000 (0000ms, 7571ms total)
T15B0 3035:705 JLINK_ClrBPEx(BPHandle = 0x0000000C)  returns 0x00 (0000ms, 7571ms total)
T15B0 3035:705 JLINK_ReadReg(R0)  returns 0x00000000 (0000ms, 7571ms total)
T15B0 3035:707 JLINK_WriteMem(0x20000164, 0x029C Bytes, ...) - Data: 4F F0 01 3C 50 F8 04 2B 51 F8 04 3B 9A 42 21 D1 ... -- CPU_WriteMem(668 bytes @ 0x20000164)  returns 0x29C (0009ms, 7580ms total)
T15B0 3035:716 JLINK_WriteMem(0x20000400, 0x0164 Bytes, ...) - Data: 00 EB 80 00 4F F4 40 01 00 EB D0 70 01 EA 60 00 ... -- CPU_WriteMem(356 bytes @ 0x20000400)  returns 0x164 (0005ms, 7585ms total)
T15B0 3035:721 JLINK_WriteReg(R0, 0x08002000)  returns 0x00 (0000ms, 7585ms total)
T15B0 3035:721 JLINK_WriteReg(R1, 0x00000400)  returns 0x00 (0000ms, 7585ms total)
T15B0 3035:721 JLINK_WriteReg(R2, 0x20000164)  returns 0x00 (0000ms, 7585ms total)
T15B0 3035:721 JLINK_WriteReg(R3, 0x00000000)  returns 0x00 (0001ms, 7586ms total)
T15B0 3035:722 JLINK_WriteReg(R4, 0x00000000)  returns 0x00 (0000ms, 7586ms total)
T15B0 3035:722 JLINK_WriteReg(R5, 0x00000000)  returns 0x00 (0000ms, 7586ms total)
T15B0 3035:722 JLINK_WriteReg(R6, 0x00000000)  returns 0x00 (0000ms, 7586ms total)
T15B0 3035:722 JLINK_WriteReg(R7, 0x00000000)  returns 0x00 (0000ms, 7586ms total)
T15B0 3035:722 JLINK_WriteReg(R8, 0x00000000)  returns 0x00 (0000ms, 7586ms total)
T15B0 3035:722 JLINK_WriteReg(R9, 0x20000160)  returns 0x00 (0000ms, 7586ms total)
T15B0 3035:722 JLINK_WriteReg(R10, 0x00000000)  returns 0x00 (0000ms, 7586ms total)
T15B0 3035:722 JLINK_WriteReg(R11, 0x00000000)  returns 0x00 (0000ms, 7586ms total)
T15B0 3035:722 JLINK_WriteReg(R12, 0x00000000)  returns 0x00 (0000ms, 7586ms total)
T15B0 3035:722 JLINK_WriteReg(R13 (SP), 0x20001000)  returns 0x00 (0000ms, 7586ms total)
T15B0 3035:722 JLINK_WriteReg(R14, 0x20000001)  returns 0x00 (0000ms, 7586ms total)
T15B0 3035:722 JLINK_WriteReg(R15 (PC), 0x200000F4)  returns 0x00 (0000ms, 7586ms total)
T15B0 3035:722 JLINK_WriteReg(XPSR, 0x01000000)  returns 0x00 (0000ms, 7586ms total)
T15B0 3035:723 JLINK_WriteReg(MSP, 0x20001000)  returns 0x00 (0000ms, 7587ms total)
T15B0 3035:723 JLINK_WriteReg(PSP, 0x20001000)  returns 0x00 (0000ms, 7587ms total)
T15B0 3035:723 JLINK_WriteReg(CFBP, 0x00000000)  returns 0x00 (0000ms, 7587ms total)
T15B0 3035:723 JLINK_SetBPEx(Addr = 0x20000000, Type = 0xFFFFFFF2)  returns 0x0000000D (0000ms, 7587ms total)
T15B0 3035:723 JLINK_Go() -- CPU_ReadMem(4 bytes @ 0xE0001000) (0003ms, 7590ms total)
T15B0 3035:726 JLINK_IsHalted()  returns FALSE (0001ms, 7591ms total)
T15B0 3035:729 JLINK_IsHalted()  returns FALSE (0000ms, 7590ms total)
T15B0 3035:731 JLINK_IsHalted()  returns FALSE (0000ms, 7590ms total)
T15B0 3035:733 JLINK_IsHalted()  returns FALSE (0001ms, 7591ms total)
T15B0 3035:735 JLINK_IsHalted()  returns FALSE (0001ms, 7591ms total)
T15B0 3035:738 JLINK_IsHalted()  returns FALSE (0000ms, 7590ms total)
T15B0 3035:740 JLINK_IsHalted()  returns FALSE (0001ms, 7591ms total)
T15B0 3035:743 JLINK_IsHalted()  returns FALSE (0001ms, 7591ms total)
T15B0 3035:746 JLINK_IsHalted()  returns FALSE (0000ms, 7590ms total)
T15B0 3035:748 JLINK_IsHalted()  returns FALSE (0001ms, 7591ms total)
T15B0 3035:751 JLINK_IsHalted()  returns FALSE (0000ms, 7590ms total)
T15B0 3035:753 JLINK_IsHalted()  returns FALSE (0001ms, 7591ms total)
T15B0 3035:756 JLINK_IsHalted()  returns FALSE (0001ms, 7591ms total)
T15B0 3035:759 JLINK_IsHalted() -- CPU_ReadMem(2 bytes @ 0x20000000)  returns TRUE (0004ms, 7594ms total)
T15B0 3035:763 JLINK_ReadReg(R15 (PC))  returns 0x20000000 (0001ms, 7591ms total)
T15B0 3035:764 JLINK_ClrBPEx(BPHandle = 0x0000000D)  returns 0x00 (0000ms, 7591ms total)
T15B0 3035:764 JLINK_ReadReg(R0)  returns 0x00000000 (0000ms, 7591ms total)
